Sample in Buffer,Sample in Window,TRIGGER,EXP_IBUF[15:0],clk50M_IBUF,HADDRI[31:0],HRDATAI[31:0]
Radix - UNSIGNED,UNSIGNED,UNSIGNED,HEX,HEX,HEX,HEX
0,0,0,ff5e,0,0000029c,00000000
1,1,0,ff5e,0,0000029c,00000000
2,2,0,ff5e,0,0000037c,00000000
3,3,0,ff5e,0,00000380,f7ff4610
4,4,0,ff5e,0,00000384,2000ff89
5,5,0,ff5e,0,00000384,00000000
6,6,0,ff5e,0,00000294,ff8af7ff
7,7,0,ff5e,0,00000298,21e0f04f
8,8,0,ff5e,0,0000029c,47706148
9,9,0,ff5e,0,000002a0,21e0f04f
10,10,0,ff5e,0,000002a4,47706188
11,11,0,ff5e,0,00000380,00000000
12,12,0,ff5e,0,00000384,2000ff89
13,13,0,ff5e,0,00000388,ff8af7ff
14,14,0,ff5e,0,00000388,00000000
15,15,0,ff5e,0,0000029c,f7ff2007
16,16,0,ff5e,0,000002a0,21e0f04f
17,17,0,ff5e,0,000002a4,47706188
18,18,0,ff5e,0,000002a8,2000b510
19,19,0,ff5e,0,000002ac,fff0f7ff
20,20,0,ff5e,0,00000388,00000000
21,21,0,ff5e,0,0000038c,f7ff2007
22,22,0,ff5e,0,00000390,bf30ff7f
23,23,0,ff5e,0,00000390,00000000
24,24,0,ff5e,0,0000028c,b530bd00
25,25,0,ff5e,0,00000290,21e0f04f
26,26,0,ff5e,0,00000294,47706108
27,27,0,ff5e,0,00000298,21e0f04f
28,28,0,ff5e,0,0000029c,47706148
29,29,0,ff5e,0,0000038c,00000000
30,30,0,ff5e,0,00000390,bf30ff7f
31,31,0,ff5e,0,00000394,b530bd00
32,32,0,ff5e,0,00000394,00000000
33,33,0,ff5e,0,00000398,25004604
34,34,0,ff5e,0,0000039c,f44fe005
35,35,0,ff5e,0,0000039c,00000000
36,36,0,ff5e,0,0000039c,00000000
37,37,0,ff5e,0,0000039c,00000000
38,38,0,ff5e,0,0000039c,00000000
39,39,0,ff5e,0,0000039c,00000000
40,40,0,ff5e,0,0000039c,00000000
41,41,0,ff5e,0,0000039c,00000000
42,42,0,ff5e,0,0000039c,00000000
43,43,0,ff5e,0,0000039c,00000000
44,44,0,ff5e,0,0000039c,00000000
45,45,0,ff5e,0,0000039c,00000000
46,46,0,ff5e,0,0000039c,00000000
47,47,0,ff5e,0,0000039c,00000000
48,48,0,ff5e,0,0000039c,00000000
49,49,0,ff5e,0,0000039c,00000000
50,50,0,ff5e,0,0000039c,00000000
51,51,0,ff5e,0,0000039c,00000000
52,52,0,ff5e,0,0000039c,00000000
53,53,0,ff5e,0,0000039c,00000000
54,54,0,ff5e,0,0000039c,00000000
55,55,0,ff5e,0,0000039c,00000000
56,56,0,ff5e,0,0000039c,00000000
57,57,0,ff5e,0,0000039c,00000000
58,58,0,ff5e,0,0000039c,00000000
59,59,0,ff5e,0,0000039c,00000000
60,60,0,ff5e,0,0000039c,00000000
61,61,0,ff5e,0,0000039c,00000000
62,62,0,ff5e,0,0000039c,00000000
63,63,0,ff5e,0,0000039c,00000000
64,64,0,ff5e,0,0000039c,00000000
65,65,0,ff5e,0,0000039c,00000000
66,66,0,ff5e,0,0000039c,00000000
67,67,0,ff5e,0,0000039c,00000000
68,68,0,ff5e,0,0000039c,00000000
69,69,0,ff5e,0,0000039c,00000000
70,70,0,ff5e,0,0000039c,00000000
71,71,0,ff5e,0,0000039c,00000000
72,72,0,ff5e,0,0000039c,00000000
73,73,0,ff5e,0,0000039c,00000000
74,74,0,ff5e,0,0000039c,00000000
75,75,0,ff5e,0,0000039c,00000000
76,76,0,ff5e,0,0000039c,00000000
77,77,0,ff5e,0,0000039c,00000000
78,78,0,ff5e,0,0000039c,00000000
79,79,0,ff5e,0,0000039c,00000000
80,80,0,ff5e,0,0000039c,00000000
81,81,0,ff5e,0,0000039c,00000000
82,82,0,ff5e,0,0000039c,00000000
83,83,0,ff5e,0,0000039c,00000000
84,84,0,ff5e,0,0000039c,00000000
85,85,0,ff5e,0,0000003c,00000000
86,86,0,ff5e,0,0000039c,000002c1
87,87,0,ff5e,0,000002c4,00000000
88,88,0,ff5e,0,000002c4,00000000
89,89,0,ff5e,0,000002c0,00000000
90,90,0,ff5e,0,000002c4,68004802
91,91,0,ff5e,0,000002c8,49011c40
92,92,0,ff5e,0,000002cc,47706008
93,93,0,ff5e,0,000002cc,00000000
94,94,0,ff5e,0,000002cc,00000000
95,95,0,ff5e,0,000002cc,00000000
96,96,0,ff5e,0,000002cc,20000004
97,97,0,ff5e,0,000002cc,00000000
98,98,0,ff5e,0,000002d0,00000000
99,99,0,ff5e,0,000002d0,20000004
100,100,0,ff5e,0,000002d4,4811b51f
101,101,0,ff5e,0,000002d4,00000000
102,102,0,ff5e,0,000002d4,20000004
103,103,0,ff5e,0,1ffffff8,00000000
104,104,0,ff5e,0,1ffffffc,00000000
105,105,0,ff5e,0,1ffffffc,00000000
106,106,0,ff5e,0,1ffffffc,00000000
107,107,0,ff5e,0,00000390,00000000
108,108,0,ff5e,0,00000394,00000000
109,109,0,ff5e,0,00000394,b530bd00
110,110,0,ff5e,0,00000398,25004604
111,111,0,ff5e,0,0000039c,f44fe005
112,112,0,ff5e,0,0000039c,00000000
113,113,0,ff5e,0,0000039c,00000000
114,114,0,ff5e,0,0000039c,00000000
115,115,0,ff5e,0,0000039c,00000000
116,116,0,ff5e,0,000003b8,00000000
117,117,0,ff5e,0,000003bc,1c60ffdc
118,118,0,ff5e,0,000003c0,429cb284
119,119,0,ff5e,0,000003c4,bd10dbf8
120,120,0,ff5e,0,000003c8,4821b086
121,121,0,ff5e,0,000003b4,f44f6800
122,122,0,ff5e,0,000003b8,f7ff2032
123,123,0,ff5e,0,000003bc,1c60ffdc
124,124,0,ff5e,0,00000370,429cb284
125,125,0,ff5e,0,00000374,b5004770
126,126,0,ff5e,0,00000378,20004602
127,127,0,ff5e,0,0000037c,ff88f7ff
128,128,0,ff5e,0,00000380,f7ff4610
129,129,0,ff5e,0,00000380,00000000
130,130,0,ff5e,0,0000028c,2000ff89
131,131,0,ff5e,0,00000290,21e0f04f
132,132,0,ff5e,0,00000294,47706108
133,133,0,ff5e,0,00000298,21e0f04f
134,134,0,ff5e,0,0000029c,47706148
135,135,0,ff5e,0,0000037c,00000000
136,136,0,ff5e,0,0000003c,00000000
137,137,0,ff5e,0,00000380,000002c1
138,138,0,ff5e,0,000002c4,00000000
139,139,0,ff5e,0,000002c4,00000000
140,140,0,ff5e,0,000002c0,00000000
141,141,0,ff5e,0,000002c4,68004802
142,142,0,ff5e,0,000002c8,49011c40
143,143,0,ff5e,0,000002cc,47706008
144,144,0,ff5e,0,000002cc,00000000
145,145,0,ff5e,0,000002cc,00000000
146,146,0,ff5e,0,000002cc,00000000
147,147,0,ff5e,0,000002cc,20000004
148,148,0,ff5e,0,000002cc,00000000
149,149,0,ff5e,0,000002d0,00000000
150,150,0,ff5e,0,000002d0,20000004
151,151,0,ff5e,0,000002d4,4811b51f
152,152,0,ff5e,0,000002d4,00000000
153,153,0,ff5e,0,000002d4,20000004
154,154,0,ff5e,0,1ffffff8,00000000
155,155,0,ff5e,0,1ffffffc,00000000
156,156,0,ff5e,0,1ffffffc,00000000
157,157,0,ff5e,0,1ffffffc,00000000
158,158,0,ff5e,0,00000290,00000000
159,159,0,ff5e,0,00000294,00000000
160,160,0,ff5e,0,00000294,47706108
161,161,0,ff5e,0,00000298,21e0f04f
162,162,0,ff5e,0,0000029c,47706148
163,163,0,ff5e,0,0000029c,00000000
164,164,0,ff5e,0,0000029c,00000000
165,165,0,ff5e,0,0000037c,00000000
166,166,0,ff5e,0,00000380,f7ff4610
167,167,0,ff5e,0,00000384,2000ff89
168,168,0,ff5e,0,00000384,00000000
169,169,0,ff5e,0,00000294,ff8af7ff
170,170,0,ff5e,0,00000298,21e0f04f
171,171,0,ff5e,0,0000029c,47706148
172,172,0,ff5e,0,000002a0,21e0f04f
173,173,0,ff5e,0,000002a4,47706188
174,174,0,ff5e,0,00000380,00000000
175,175,0,ff5e,0,00000384,2000ff89
176,176,0,ff5e,0,00000388,ff8af7ff
177,177,0,ff5e,0,00000388,00000000
178,178,0,ff5e,0,0000029c,f7ff2007
179,179,0,ff5e,0,000002a0,21e0f04f
180,180,0,ff5e,0,000002a4,47706188
181,181,0,ff5e,0,000002a8,2000b510
182,182,0,ff5e,0,000002ac,fff0f7ff
183,183,0,ff5e,0,00000388,00000000
184,184,0,ff5e,0,0000038c,f7ff2007
185,185,0,ff5e,0,00000390,bf30ff7f
186,186,0,ff5e,0,00000390,00000000
187,187,0,ff5e,0,0000028c,b530bd00
188,188,0,ff5e,0,00000290,21e0f04f
189,189,0,ff5e,0,00000294,47706108
190,190,0,ff5e,0,00000298,21e0f04f
191,191,0,ff5e,0,0000029c,47706148
192,192,0,ff5e,0,0000038c,00000000
193,193,0,ff5e,0,00000390,bf30ff7f
194,194,0,ff5e,0,00000394,b530bd00
195,195,0,ff5e,0,00000394,00000000
196,196,0,ff5e,0,00000398,25004604
197,197,0,ff5e,0,0000039c,f44fe005
198,198,0,ff5e,0,0000039c,00000000
199,199,0,ff5e,0,0000039c,00000000
200,200,0,ff5e,0,0000039c,00000000
201,201,0,ff5e,0,0000039c,00000000
202,202,0,ff5e,0,0000039c,00000000
203,203,0,ff5e,0,0000039c,00000000
204,204,0,ff5e,0,0000039c,00000000
205,205,0,ff5e,0,0000039c,00000000
206,206,0,ff5e,0,0000039c,00000000
207,207,0,ff5e,0,0000039c,00000000
208,208,0,ff5e,0,0000039c,00000000
209,209,0,ff5e,0,0000039c,00000000
210,210,0,ff5e,0,0000039c,00000000
211,211,0,ff5e,0,0000039c,00000000
212,212,0,ff5e,0,0000039c,00000000
213,213,0,ff5e,0,0000039c,00000000
214,214,0,ff5e,0,0000039c,00000000
215,215,0,ff5e,0,0000039c,00000000
216,216,0,ff5e,0,0000039c,00000000
217,217,0,ff5e,0,0000039c,00000000
218,218,0,ff5e,0,0000039c,00000000
219,219,0,ff5e,0,0000039c,00000000
220,220,0,ff5e,0,0000039c,00000000
221,221,0,ff5e,0,0000039c,00000000
222,222,0,ff5e,0,0000039c,00000000
223,223,0,ff5e,0,0000039c,00000000
224,224,0,ff5e,0,0000039c,00000000
225,225,0,ff5e,0,0000039c,00000000
226,226,0,ff5e,0,0000039c,00000000
227,227,0,ff5e,0,0000039c,00000000
228,228,0,ff5e,0,0000039c,00000000
229,229,0,ff5e,0,0000039c,00000000
230,230,0,ff5e,0,0000039c,00000000
231,231,0,ff5e,0,0000039c,00000000
232,232,0,ff5e,0,0000039c,00000000
233,233,0,ff5e,0,0000039c,00000000
234,234,0,ff5e,0,0000039c,00000000
235,235,0,ff5e,0,0000039c,00000000
236,236,0,ff5e,0,0000039c,00000000
237,237,0,ff5e,0,0000039c,00000000
238,238,0,ff5e,0,0000039c,00000000
239,239,0,ff5e,0,0000039c,00000000
240,240,0,ff5e,0,0000039c,00000000
241,241,0,ff5e,0,0000039c,00000000
242,242,0,ff5e,0,0000039c,00000000
243,243,0,ff5e,0,0000039c,00000000
244,244,0,ff5e,0,0000039c,00000000
245,245,0,ff5e,0,0000039c,00000000
246,246,0,ff5e,0,0000039c,00000000
247,247,0,ff5e,0,0000039c,00000000
248,248,0,ff5e,0,0000003c,00000000
249,249,0,ff5e,0,0000039c,000002c1
250,250,0,ff5e,0,000002c4,00000000
251,251,0,ff5e,0,000002c4,00000000
252,252,0,ff5e,0,000002c0,00000000
253,253,0,ff5e,0,000002c4,68004802
254,254,0,ff5e,0,000002c8,49011c40
255,255,0,ff5e,0,000002cc,47706008
256,256,0,ff5e,0,000002cc,00000000
257,257,0,ff5e,0,000002cc,00000000
258,258,0,ff5e,0,000002cc,00000000
259,259,0,ff5e,0,000002cc,20000004
260,260,0,ff5e,0,000002cc,00000000
261,261,0,ff5e,0,000002d0,00000000
262,262,0,ff5e,0,000002d0,20000004
263,263,0,ff5e,0,000002d4,4811b51f
264,264,0,ff5e,0,000002d4,00000000
265,265,0,ff5e,0,000002d4,20000004
266,266,0,ff5e,0,1ffffff8,00000000
267,267,0,ff5e,0,1ffffffc,00000000
268,268,0,ff5e,0,1ffffffc,00000000
269,269,0,ff5e,0,1ffffffc,00000000
270,270,0,ff5e,0,00000390,00000000
271,271,0,ff5e,0,00000394,00000000
272,272,0,ff5e,0,00000394,b530bd00
273,273,0,ff5e,0,00000398,25004604
274,274,0,ff5e,0,0000039c,f44fe005
275,275,0,ff5e,0,0000039c,00000000
276,276,0,ff5e,0,0000039c,00000000
277,277,0,ff5e,0,0000039c,00000000
278,278,0,ff5e,0,0000039c,00000000
279,279,0,ff5e,0,000003b8,00000000
280,280,0,ff5e,0,000003bc,1c60ffdc
281,281,0,ff5e,0,000003c0,429cb284
282,282,0,ff5e,0,000003c4,bd10dbf8
283,283,0,ff5e,0,000003c8,4821b086
284,284,0,ff5e,0,000003b4,f44f6800
285,285,0,ff5e,0,000003b8,f7ff2032
286,286,0,ff5e,0,000003bc,1c60ffdc
287,287,0,ff5e,0,00000370,429cb284
288,288,0,ff5e,0,00000374,b5004770
289,289,0,ff5e,0,00000378,20004602
290,290,0,ff5e,0,0000037c,ff88f7ff
291,291,0,ff5e,0,00000380,f7ff4610
292,292,0,ff5e,0,00000380,00000000
293,293,0,ff5e,0,0000028c,2000ff89
294,294,0,ff5e,0,00000290,21e0f04f
295,295,0,ff5e,0,00000294,47706108
296,296,0,ff5e,0,00000298,21e0f04f
297,297,0,ff5e,0,0000029c,47706148
298,298,0,ff5e,0,0000037c,00000000
299,299,0,ff5e,0,0000003c,00000000
300,300,0,ff5e,0,00000380,000002c1
301,301,0,ff5e,0,000002c4,00000000
302,302,0,ff5e,0,000002c4,00000000
303,303,0,ff5e,0,000002c0,00000000
304,304,0,ff5e,0,000002c4,68004802
305,305,0,ff5e,0,000002c8,49011c40
306,306,0,ff5e,0,000002cc,47706008
307,307,0,ff5e,0,000002cc,00000000
308,308,0,ff5e,0,000002cc,00000000
309,309,0,ff5e,0,000002cc,00000000
310,310,0,ff5e,0,000002cc,20000004
311,311,0,ff5e,0,000002cc,00000000
312,312,0,ff5e,0,000002d0,00000000
313,313,0,ff5e,0,000002d0,20000004
314,314,0,ff5e,0,000002d4,4811b51f
315,315,0,ff5e,0,000002d4,00000000
316,316,0,ff5e,0,000002d4,20000004
317,317,0,ff5e,0,1ffffff8,00000000
318,318,0,ff5e,0,1ffffffc,00000000
319,319,0,ff5e,0,1ffffffc,00000000
320,320,0,ff5e,0,1ffffffc,00000000
321,321,0,ff5e,0,00000290,00000000
322,322,0,ff5e,0,00000294,00000000
323,323,0,ff5e,0,00000294,47706108
324,324,0,ff5e,0,00000298,21e0f04f
325,325,0,ff5e,0,0000029c,47706148
326,326,0,ff5e,0,0000029c,00000000
327,327,0,ff5e,0,0000029c,00000000
328,328,0,ff5e,0,0000037c,00000000
329,329,0,ff5e,0,00000380,f7ff4610
330,330,0,ff5e,0,00000384,2000ff89
331,331,0,ff5e,0,00000384,00000000
332,332,0,ff5e,0,00000294,ff8af7ff
333,333,0,ff5e,0,00000298,21e0f04f
334,334,0,ff5e,0,0000029c,47706148
335,335,0,ff5e,0,000002a0,21e0f04f
336,336,0,ff5e,0,000002a4,47706188
337,337,0,ff5e,0,00000380,00000000
338,338,0,ff5e,0,00000384,2000ff89
339,339,0,ff5e,0,00000388,ff8af7ff
340,340,0,ff5e,0,00000388,00000000
341,341,0,ff5e,0,0000029c,f7ff2007
342,342,0,ff5e,0,000002a0,21e0f04f
343,343,0,ff5e,0,000002a4,47706188
344,344,0,ff5e,0,000002a8,2000b510
345,345,0,ff5e,0,000002ac,fff0f7ff
346,346,0,ff5e,0,00000388,00000000
347,347,0,ff5e,0,0000038c,f7ff2007
348,348,0,ff5e,0,00000390,bf30ff7f
349,349,0,ff5e,0,00000390,00000000
350,350,0,ff5e,0,0000028c,b530bd00
351,351,0,ff5e,0,00000290,21e0f04f
352,352,0,ff5e,0,00000294,47706108
353,353,0,ff5e,0,00000298,21e0f04f
354,354,0,ff5e,0,0000029c,47706148
355,355,0,ff5e,0,0000038c,00000000
356,356,0,ff5e,0,00000390,bf30ff7f
357,357,0,ff5e,0,00000394,b530bd00
358,358,0,ff5e,0,00000394,00000000
359,359,0,ff5e,0,00000398,25004604
360,360,0,ff5e,0,0000039c,f44fe005
361,361,0,ff5e,0,0000039c,00000000
362,362,0,ff5e,0,0000039c,00000000
363,363,0,ff5e,0,0000039c,00000000
364,364,0,ff5e,0,0000039c,00000000
365,365,0,ff5e,0,0000039c,00000000
366,366,0,ff5e,0,0000039c,00000000
367,367,0,ff5e,0,0000039c,00000000
368,368,0,ff5e,0,0000039c,00000000
369,369,0,ff5e,0,0000039c,00000000
370,370,0,ff5e,0,0000039c,00000000
371,371,0,ff5e,0,0000039c,00000000
372,372,0,ff5e,0,0000039c,00000000
373,373,0,ff5e,0,0000039c,00000000
374,374,0,ff5e,0,0000039c,00000000
375,375,0,ff5e,0,0000039c,00000000
376,376,0,ff5e,0,0000039c,00000000
377,377,0,ff5e,0,0000039c,00000000
378,378,0,ff5e,0,0000039c,00000000
379,379,0,ff5e,0,0000039c,00000000
380,380,0,ff5e,0,0000039c,00000000
381,381,0,ff5e,0,0000039c,00000000
382,382,0,ff5e,0,0000039c,00000000
383,383,0,ff5e,0,0000039c,00000000
384,384,0,ff5e,0,0000039c,00000000
385,385,0,ff5e,0,0000039c,00000000
386,386,0,ff5e,0,0000039c,00000000
387,387,0,ff5e,0,0000039c,00000000
388,388,0,ff5e,0,0000039c,00000000
389,389,0,ff5e,0,0000039c,00000000
390,390,0,ff5e,0,0000039c,00000000
391,391,0,ff5e,0,0000039c,00000000
392,392,0,ff5e,0,0000039c,00000000
393,393,0,ff5e,0,0000039c,00000000
394,394,0,ff5e,0,0000039c,00000000
395,395,0,ff5e,0,0000039c,00000000
396,396,0,ff5e,0,0000039c,00000000
397,397,0,ff5e,0,0000039c,00000000
398,398,0,ff5e,0,0000039c,00000000
399,399,0,ff5e,0,0000039c,00000000
400,400,0,ff5e,0,0000039c,00000000
401,401,0,ff5e,0,0000039c,00000000
402,402,0,ff5e,0,0000039c,00000000
403,403,0,ff5e,0,0000039c,00000000
404,404,0,ff5e,0,0000039c,00000000
405,405,0,ff5e,0,0000039c,00000000
406,406,0,ff5e,0,0000039c,00000000
407,407,0,ff5e,0,0000039c,00000000
408,408,0,ff5e,0,0000039c,00000000
409,409,0,ff5e,0,0000039c,00000000
410,410,0,ff5e,0,0000039c,00000000
411,411,0,ff5e,0,0000003c,00000000
412,412,0,ff5e,0,0000039c,000002c1
413,413,0,ff5e,0,000002c4,00000000
414,414,0,ff5e,0,000002c4,00000000
415,415,0,ff5e,0,000002c0,00000000
416,416,0,ff5e,0,000002c4,68004802
417,417,0,ff5e,0,000002c8,49011c40
418,418,0,ff5e,0,000002cc,47706008
419,419,0,ff5e,0,000002cc,00000000
420,420,0,ff5e,0,000002cc,00000000
421,421,0,ff5e,0,000002cc,00000000
422,422,0,ff5e,0,000002cc,20000004
423,423,0,ff5e,0,000002cc,00000000
424,424,0,ff5e,0,000002d0,00000000
425,425,0,ff5e,0,000002d0,20000004
426,426,0,ff5e,0,000002d4,4811b51f
427,427,0,ff5e,0,000002d4,00000000
428,428,0,ff5e,0,000002d4,20000004
429,429,0,ff5e,0,1ffffff8,00000000
430,430,0,ff5e,0,1ffffffc,00000000
431,431,0,ff5e,0,1ffffffc,00000000
432,432,0,ff5e,0,1ffffffc,00000000
433,433,0,ff5e,0,00000390,00000000
434,434,0,ff5e,0,00000394,00000000
435,435,0,ff5e,0,00000394,b530bd00
436,436,0,ff5e,0,00000398,25004604
437,437,0,ff5e,0,0000039c,f44fe005
438,438,0,ff5e,0,0000039c,00000000
439,439,0,ff5e,0,0000039c,00000000
440,440,0,ff5e,0,0000039c,00000000
441,441,0,ff5e,0,0000039c,00000000
442,442,0,ff5e,0,000003b8,00000000
443,443,0,ff5e,0,000003bc,1c60ffdc
444,444,0,ff5e,0,000003c0,429cb284
445,445,0,ff5e,0,000003c4,bd10dbf8
446,446,0,ff5e,0,000003c8,4821b086
447,447,0,ff5e,0,000003b4,f44f6800
448,448,0,ff5e,0,000003b8,f7ff2032
449,449,0,ff5e,0,000003bc,1c60ffdc
450,450,0,ff5e,0,00000370,429cb284
451,451,0,ff5e,0,00000374,b5004770
452,452,0,ff5e,0,00000378,20004602
453,453,0,ff5e,0,0000037c,ff88f7ff
454,454,0,ff5e,0,00000380,f7ff4610
455,455,0,ff5e,0,00000380,00000000
456,456,0,ff5e,0,0000028c,2000ff89
457,457,0,ff5e,0,00000290,21e0f04f
458,458,0,ff5e,0,00000294,47706108
459,459,0,ff5e,0,00000298,21e0f04f
460,460,0,ff5e,0,0000029c,47706148
461,461,0,ff5e,0,0000037c,00000000
462,462,0,ff5e,0,0000003c,00000000
463,463,0,ff5e,0,00000380,000002c1
464,464,0,ff5e,0,000002c4,00000000
465,465,0,ff5e,0,000002c4,00000000
466,466,0,ff5e,0,000002c0,00000000
467,467,0,ff5e,0,000002c4,68004802
468,468,0,ff5e,0,000002c8,49011c40
469,469,0,ff5e,0,000002cc,47706008
470,470,0,ff5e,0,000002cc,00000000
471,471,0,ff5e,0,000002cc,00000000
472,472,0,ff5e,0,000002cc,00000000
473,473,0,ff5e,0,000002cc,20000004
474,474,0,ff5e,0,000002cc,00000000
475,475,0,ff5e,0,000002d0,00000000
476,476,0,ff5e,0,000002d0,20000004
477,477,0,ff5e,0,000002d4,4811b51f
478,478,0,ff5e,0,000002d4,00000000
479,479,0,ff5e,0,000002d4,20000004
480,480,0,ff5e,0,1ffffff8,00000000
481,481,0,ff5e,0,1ffffffc,00000000
482,482,0,ff5e,0,1ffffffc,00000000
483,483,0,ff5e,0,1ffffffc,00000000
484,484,0,ff5e,0,00000290,00000000
485,485,0,ff5e,0,00000294,00000000
486,486,0,ff5e,0,00000294,47706108
487,487,0,ff5e,0,00000298,21e0f04f
488,488,0,ff5e,0,0000029c,47706148
489,489,0,ff5e,0,0000029c,00000000
490,490,0,ff5e,0,0000029c,00000000
491,491,0,ff5e,0,0000037c,00000000
492,492,0,ff5e,0,00000380,f7ff4610
493,493,0,ff5e,0,00000384,2000ff89
494,494,0,ff5e,0,00000384,00000000
495,495,0,ff5e,0,00000294,ff8af7ff
496,496,0,ff5e,0,00000298,21e0f04f
497,497,0,ff5e,0,0000029c,47706148
498,498,0,ff5e,0,000002a0,21e0f04f
499,499,0,ff5e,0,000002a4,47706188
500,500,0,ff5e,0,00000380,00000000
501,501,0,ff5e,0,00000384,2000ff89
502,502,0,ff5e,0,00000388,ff8af7ff
503,503,0,ff5e,0,00000388,00000000
504,504,0,ff5e,0,0000029c,f7ff2007
505,505,0,ff5e,0,000002a0,21e0f04f
506,506,0,ff5e,0,000002a4,47706188
507,507,0,ff5e,0,000002a8,2000b510
508,508,0,ff5e,0,000002ac,fff0f7ff
509,509,0,ff5e,0,00000388,00000000
510,510,0,ff5e,0,0000038c,f7ff2007
511,511,0,ff5e,0,00000390,bf30ff7f
512,512,1,ff5e,0,00000390,00000000
513,513,0,ff5e,0,0000028c,b530bd00
514,514,0,ff5e,0,00000290,21e0f04f
515,515,0,ff5e,0,00000294,47706108
516,516,0,ff5e,0,00000298,21e0f04f
517,517,0,ff5e,0,0000029c,47706148
518,518,0,ff5e,0,0000038c,00000000
519,519,0,ff5e,0,00000390,bf30ff7f
520,520,0,ff5e,0,00000394,b530bd00
521,521,0,ff5e,0,00000394,00000000
522,522,0,ff5e,0,00000398,25004604
523,523,0,ff5e,0,0000039c,f44fe005
524,524,0,ff5e,0,0000039c,00000000
525,525,0,ff5e,0,0000039c,00000000
526,526,0,ff5e,0,0000039c,00000000
527,527,0,ff5e,0,0000039c,00000000
528,528,0,ff5e,0,0000039c,00000000
529,529,0,ff5e,0,0000039c,00000000
530,530,0,ff5e,0,0000039c,00000000
531,531,0,ff5e,0,0000039c,00000000
532,532,0,ff5e,0,0000039c,00000000
533,533,0,ff5e,0,0000039c,00000000
534,534,0,ff5e,0,0000039c,00000000
535,535,0,ff5e,0,0000039c,00000000
536,536,0,ff5e,0,0000039c,00000000
537,537,0,ff5e,0,0000039c,00000000
538,538,0,ff5e,0,0000039c,00000000
539,539,0,ff5e,0,0000039c,00000000
540,540,0,ff5e,0,0000039c,00000000
541,541,0,ff5e,0,0000039c,00000000
542,542,0,ff5e,0,0000039c,00000000
543,543,0,ff5e,0,0000039c,00000000
544,544,0,ff5e,0,0000039c,00000000
545,545,0,ff5e,0,0000039c,00000000
546,546,0,ff5e,0,0000039c,00000000
547,547,0,ff5e,0,0000039c,00000000
548,548,0,ff5e,0,0000039c,00000000
549,549,0,ff5e,0,0000039c,00000000
550,550,0,ff5e,0,0000039c,00000000
551,551,0,ff5e,0,0000039c,00000000
552,552,0,ff5e,0,0000039c,00000000
553,553,0,ff5e,0,0000039c,00000000
554,554,0,ff5e,0,0000039c,00000000
555,555,0,ff5e,0,0000039c,00000000
556,556,0,ff5e,0,0000039c,00000000
557,557,0,ff5e,0,0000039c,00000000
558,558,0,ff5e,0,0000039c,00000000
559,559,0,ff5e,0,0000039c,00000000
560,560,0,ff5e,0,0000039c,00000000
561,561,0,ff5e,0,0000039c,00000000
562,562,0,ff5e,0,0000039c,00000000
563,563,0,ff5e,0,0000039c,00000000
564,564,0,ff5e,0,0000039c,00000000
565,565,0,ff5e,0,0000039c,00000000
566,566,0,ff5e,0,0000039c,00000000
567,567,0,ff5e,0,0000039c,00000000
568,568,0,ff5e,0,0000039c,00000000
569,569,0,ff5e,0,0000039c,00000000
570,570,0,ff5e,0,0000039c,00000000
571,571,0,ff5e,0,0000039c,00000000
572,572,0,ff5e,0,0000039c,00000000
